Circuit: * D:\GitHub\ECE2274\Lab10\plt3.asc

Warning: Multiple definitions of model "bc817-40t116" Type: BJT
Warning: Multiple definitions of model "bc817-25t116" Type: BJT
Warning: Multiple definitions of model "bc847bt116" Type: BJT
Warning: Multiple definitions of model "bc807-40t116" Type: BJT
Warning: Multiple definitions of model "bc807-25t116" Type: BJT
Warning: Multiple definitions of model "bc857bt116" Type: BJT
Direct Newton iteration for .op point succeeded.
Semiconductor Device Operating Points:
                        --- Diodes ---
Name:      d1          d2          d3          d4
Model:   1n4002      1n4002      1n4002      1n4002
Id:      1.52e-04    1.52e-04    1.52e-04    1.52e-04
Vd:      4.47e-01    4.47e-01    4.47e-01    4.47e-01
Req:     3.12e+02    3.12e+02    3.12e+02    3.12e+02
CAP:     1.93e-11    1.93e-11    1.93e-11    1.93e-11

                        --- Bipolar Transistors ---
Name:       q1
Model:    2n3906
Ib:      -8.04e-06
Ic:      -1.65e-03
Vbe:     -6.68e-01
Vbc:      3.01e+00
Vce:     -3.68e+00
BetaDC:   2.05e+02
Gm:       6.35e-02
Rpi:      3.22e+03
Rx:       2.00e+01
Ro:       6.24e+04
Cbe:      3.80e-11
Cbc:      2.64e-12
Cjs:      0.00e+00
BetaAC:   2.04e+02
Cbx:      0.00e+00
Ft:       2.49e+08



Date: Wed Oct 17 19:44:01 2018
Total elapsed time: 0.073 seconds.

tnom = 27
temp = 27
method = trap
totiter = 10
traniter = 0
tranpoints = 0
accept = 0
rejected = 0
matrix size = 15
fillins = 0
solver = Normal
Matrix Compiler1: 828 bytes object code size
Matrix Compiler2: 1.13 KB object code size
