Stray ".ends" card: .ends
Circuit: * D:\GitHub\ECE2274\Lab11\PreLab1.asc

Direct Newton iteration for .op point succeeded.
Semiconductor Device Operating Points:
                        --- MOSFET Transistors ---
Name:          m2          m1
Model:       2n7000      2n7000
Id:          1.80e-11    1.80e-11
Vgs:         9.00e+00   -3.46e-11
Vds:         3.46e-11    9.00e+00
Vbs:         0.00e+00    0.00e+00
Vth:         1.95e+00    1.92e+00
Vdsat:       6.20e+00    3.59e-02
Gm:          2.54e-12    5.86e-24
Gds:         6.77e-01    1.98e-26
Gmb:         5.24e-13    3.23e-24
Cbd:         0.00e+00    0.00e+00
Cbs:         0.00e+00    0.00e+00
Cgsov:       7.27e-11    7.27e-11
Cgdov:       2.54e-11    2.54e-11
Cgbov:       0.00e+00    0.00e+00
Cgs:         3.45e-12    0.00e+00
Cgd:         3.45e-12    0.00e+00
Cgb:         0.00e+00    6.90e-12



Date: Wed Oct 24 15:25:55 2018
Total elapsed time: 0.086 seconds.

tnom = 27
temp = 27
method = trap
totiter = 8
traniter = 0
tranpoints = 0
accept = 0
rejected = 0
matrix size = 12
fillins = 0
solver = Normal
Matrix Compiler1: 544 bytes object code size
Matrix Compiler2: 934 bytes object code size
