Stray ".ends" card: .ends
Circuit: * D:\GitHub\ECE2274\Lab11\PreLab2.asc

Direct Newton iteration for .op point succeeded.
Semiconductor Device Operating Points:
                        --- MOSFET Transistors ---
Name:          m2          m1
Model:       2n7000      2n7000
Id:          1.24e-13    2.98e-02
Vgs:         0.00e+00    9.00e+00
Vds:         5.75e-02    5.75e-02
Vbs:         0.00e+00    0.00e+00
Vth:         1.95e+00    1.95e+00
Vdsat:       3.59e-02    6.19e+00
Gm:          2.78e-24    4.22e-03
Gds:         9.42e-27    6.71e-01
Gmb:         1.55e-24    8.52e-04
Cbd:         0.00e+00    0.00e+00
Cbs:         0.00e+00    0.00e+00
Cgsov:       7.27e-11    7.27e-11
Cgdov:       2.54e-11    2.54e-11
Cgbov:       0.00e+00    0.00e+00
Cgs:         0.00e+00    3.46e-12
Cgd:         0.00e+00    3.44e-12
Cgb:         6.90e-12    0.00e+00



Date: Wed Oct 24 15:37:33 2018
Total elapsed time: 0.072 seconds.

tnom = 27
temp = 27
method = trap
totiter = 7
traniter = 0
tranpoints = 0
accept = 0
rejected = 0
matrix size = 11
fillins = 0
solver = Normal
Matrix Compiler1: 396 bytes object code size
Matrix Compiler2: 793 bytes object code size
