Stray ".ends" card: .ends
Circuit: * D:\GitHub\ECE2274\Lab8\PreLab3.asc

Direct Newton iteration for .op point succeeded.
Semiconductor Device Operating Points:
                        --- MOSFET Transistors ---
Name:          m1
Model:       2n7000
Id:          9.41e-03
Vgs:         2.36e+00
Vds:         5.04e+00
Vbs:         0.00e+00
Vth:         1.93e+00
Vdsat:       4.17e-01
Gm:          3.98e-02
Gds:         1.35e-04
Gmb:         7.03e-03
Cbd:         0.00e+00
Cbs:         0.00e+00
Cgsov:       7.27e-11
Cgdov:       2.54e-11
Cgbov:       0.00e+00
Cgs:         4.60e-12
Cgd:         0.00e+00
Cgb:         0.00e+00



Date: Wed Oct 03 17:02:27 2018
Total elapsed time: 0.086 seconds.

tnom = 27
temp = 27
method = trap
totiter = 6
traniter = 0
tranpoints = 0
accept = 0
rejected = 0
matrix size = 7
fillins = 0
solver = Normal
Matrix Compiler1: 546 bytes object code size
Matrix Compiler2: 603 bytes object code size
