Circuit: * D:\GitHub\ECE2274\Lab12\PL2.asc

Warning: Multiple definitions of model "bc817-40t116" Type: BJT
Warning: Multiple definitions of model "bc817-25t116" Type: BJT
Warning: Multiple definitions of model "bc847bt116" Type: BJT
Warning: Multiple definitions of model "bc807-40t116" Type: BJT
Warning: Multiple definitions of model "bc807-25t116" Type: BJT
Warning: Multiple definitions of model "bc857bt116" Type: BJT
Direct Newton iteration for .op point succeeded.
Semiconductor Device Operating Points:
                        --- Diodes ---
Name:      d1
Model:      d
Id:      1.16e-08
Vd:      3.61e-01
Req:     2.23e+06
CAP:     0.00e+00

                        --- Bipolar Transistors ---
Name:       q4          q3          q2          q1
Model:      npn         npn         npn         npn
Ib:       3.27e-03    1.11e-10    1.33e-03    6.66e-04
Ic:      -1.78e-05    1.15e-08    2.76e-03   -1.33e-03
Vbe:      8.22e-01    4.80e-01    8.17e-01   -2.60e+00
Vbc:      8.04e-01   -4.14e+00    7.81e-01    7.64e-01
Vce:      1.79e-02    4.62e+00    3.69e-02   -3.36e+00
BetaDC:  -5.46e-03    1.03e+02    2.07e+00   -2.00e+00
Gm:       1.23e-01    4.44e-07    1.56e-01   -2.57e-02
Rpi:      4.05e+02    2.25e+08    4.86e+02    1.00e+12
Rx:       0.00e+00    0.00e+00    0.00e+00    0.00e+00
Ro:       8.07e+00    8.75e+83    2.02e+01    3.88e+01
Cbe:      0.00e+00    0.00e+00    0.00e+00    0.00e+00
Cbc:      0.00e+00    0.00e+00    0.00e+00    0.00e+00
Cjs:      0.00e+00    0.00e+00    0.00e+00    0.00e+00
BetaAC:   4.99e+01    1.00e+02    7.60e+01   -2.57e+10
Cbx:      0.00e+00    0.00e+00    0.00e+00    0.00e+00
Ft:       0.00e+00    0.00e+00    0.00e+00    0.00e+00



Date: Wed Oct 31 17:10:27 2018
Total elapsed time: 0.055 seconds.

tnom = 27
temp = 27
method = trap
totiter = 23
traniter = 0
tranpoints = 0
accept = 0
rejected = 0
matrix size = 11
fillins = 2
solver = Normal
Matrix Compiler1: 770 bytes object code size
Matrix Compiler2: 983 bytes object code size
